
T74B4 000:423 SEGGER J-Link V4.80g Log File (0000ms, 0278ms total)
T74B4 000:423 DLL Compiled: Feb 13 2014 20:50:02 (0000ms, 0278ms total)
T74B4 000:423 Logging started @ 2017-07-09 11:53 (0000ms, 0278ms total)
T74B4 000:423 JLINK_SetWarnOutHandler(...) (0000ms, 0278ms total)
T74B4 000:423 JLINK_OpenEx(...)
Firmware: J-Link ARM-OB STM32 compiled Aug 22 2012 19:52:04
Hardware: V7.00
S/N: 20090928
Feature(s): RDI,FlashDL,FlashBP,JFlash,GDBFull  returns O.K. (0258ms, 0536ms total)
T74B4 000:681 JLINK_SetErrorOutHandler(...) (0000ms, 0536ms total)
T74B4 000:681 JLINK_ExecCommand("ProjectFile = "E:\´úÂë\ÊµÑµÍÚ¿Õ´úÂë\FTC-Remoter-V1.0\JLinkSettings.ini"", ...)  returns 0x00 (0000ms, 0536ms total)
T74B4 000:687 JLINK_ExecCommand("Device = STM32F103C8", ...)Device "STM32F103C8" selected (64 KB flash, 20 KB RAM).  returns 0x00 (0009ms, 0545ms total)
T74B4 000:696 JLINK_ExecCommand("DisableConnectionTimeout", ...)  returns 0x01 (0000ms, 0545ms total)
T74B4 000:696 JLINK_GetHardwareVersion()  returns 0x11170 (0000ms, 0545ms total)
T74B4 000:696 JLINK_GetDLLVersion()  returns 48007 (0000ms, 0545ms total)
T74B4 000:696 JLINK_GetFirmwareString(...) (0000ms, 0545ms total)
T74B4 000:716 JLINK_GetDLLVersion()  returns 48007 (0000ms, 0545ms total)
T74B4 000:716 JLINK_GetCompileDateTime() (0000ms, 0545ms total)
T74B4 000:723 JLINK_GetFirmwareString(...) (0000ms, 0545ms total)
T74B4 000:729 JLINK_GetHardwareVersion()  returns 0x11170 (0000ms, 0545ms total)
T74B4 000:748 JLINK_TIF_Select(JLINKARM_TIF_SWD)  returns 0x00 (0000ms, 0545ms total)
T74B4 000:748 JLINK_SetSpeed(5000) (0000ms, 0545ms total)
T74B4 000:748 JLINK_GetId() >0x108 TIF>Found SWD-DP with ID 0x1BA01477 >0x0D TIF> >0x28 TIF> >0x0D TIF> >0x28 TIF> >0x0D TIF> >0x21 TIF> >0x0D TIF> >0x28 TIF> >0x0D TIF> >0x28 TIF> >0x0D TIF> >0x28 TIF> >0x0D TIF> >0x21 TIF> >0x0D TIF> >0x21 TIF> >0x0D TIF> >0x28 TIF> >0x0D TIF> >0x21 TIF> >0x0D TIF> >0x21 TIF> >0x0D TIF> >0x28 TIF> >0x0D TIF> >0x28 TIF> >0x108 TIF>Found SWD-DP with ID 0x1BA01477 >0x0D TIF> >0x21 TIF> >0x0D TIF> >0x28 TIF> >0x0D TIF> >0x28 TIF> >0x0D TIF> >0x21 TIF> >0x0D TIF> >0x28 TIF>
 >0x0D TIF> >0x21 TIF> >0x0D TIF> >0x21 TIF> >0x0D TIF> >0x21 TIF> >0x0D TIF> >0x21 TIF> >0x0D TIF> >0x28 TIF> >0x0D TIF> >0x28 TIF> >0x0D TIF> >0x21 TIF> >0x0D TIF> >0x28 TIF> >0x0D TIF> >0x28 TIF> >0x0D TIF> >0x28 TIF> >0x0D TIF> >0x21 TIF> >0x0D TIF> >0x21 TIF> >0x0D TIF> >0x28 TIF> >0x0D TIF> >0x21 TIF> >0x0D TIF> >0x21 TIF>Found Cortex-M3 r1p1, Little endian. -- CPU_WriteMem(4 bytes @ 0xE0002000) -- CPU_ReadMem(4 bytes @ 0xE000EDF0) -- CPU_WriteMem(4 bytes @ 0xE000EDF0)
 -- CPU_ReadMem(4 bytes @ 0xE0002000)FPUnit: 6 code (BP) slots and 2 literal slots -- CPU_ReadMem(4 bytes @ 0xE000EDFC) -- CPU_WriteMem(4 bytes @ 0xE000EDFC) -- CPU_ReadMem(4 bytes @ 0xE0001000) -- CPU_WriteMem(4 bytes @ 0xE0001000) -- CPU_ReadMem(4 bytes @ 0xE00FF010)TPIU fitted. -- CPU_ReadMem(4 bytes @ 0xE00FF014) -- CPU_ReadMem(4 bytes @ 0xE00FF018) >0x0D TIF> >0x21 TIF>  returns 0x1BA01477 (0034ms, 0579ms total)
T74B4 000:782 JLINK_GetDeviceFamily()  returns 3 (0000ms, 0579ms total)
T74B4 000:785 JLINK_ReadMem (0xE00FFFF0, 0x0010 Bytes, ...) -- CPU is running -- CPU_ReadMem(16 bytes @ 0xE00FFFF0) -- Data:  0D 00 00 00 10 00 00 00 05 00 00 00 B1 00 00 00  returns 0x00 (0000ms, 0579ms total)
T74B4 000:785 JLINK_ReadMem (0xE00FFFD0, 0x0020 Bytes, ...) -- CPU is running -- CPU_ReadMem(32 bytes @ 0xE00FFFD0) -- Data:  00 00 00 00 00 00 00 00 00 00 00 00 00 00 00 00 ...  returns 0x00 (0001ms, 0580ms total)
T74B4 000:786 JLINK_ReadMem (0xE00FF000, 0x0018 Bytes, ...) -- CPU is running -- CPU_ReadMem(24 bytes @ 0xE00FF000) -- Data:  03 F0 F0 FF 03 20 F0 FF 03 30 F0 FF 03 10 F0 FF ...  returns 0x00 (0001ms, 0581ms total)
T74B4 000:787 JLINK_ReadMemU32(0xE000ED00, 0x0001 Items, ...) -- CPU is running -- CPU_ReadMem(4 bytes @ 0xE000ED00) -- Data:  31 C2 1F 41  returns 0x01 (0000ms, 0581ms total)
T74B4 000:787 JLINK_SetResetType(JLINKARM_RESET_TYPE_NORMAL)  returns JLINKARM_RESET_TYPE_NORMAL (0000ms, 0581ms total)
T74B4 000:787 JLINK_Reset() -- CPU is running -- CPU_WriteMem(4 bytes @ 0xE000EDF0) -- CPU is running -- CPU_WriteMem(4 bytes @ 0xE000EDFC) >0x35 TIF> -- CPU is running -- CPU_WriteMem(4 bytes @ 0xE000ED0C) -- CPU is running -- CPU_ReadMem(4 bytes @ 0xE000EDF0) -- CPU is running -- CPU_ReadMem(4 bytes @ 0xE000EDF0) -- CPU is running -- CPU_WriteMem(4 bytes @ 0xE000EDF0) -- CPU is running -- CPU_WriteMem(4 bytes @ 0xE000EDFC) -- CPU is running -- CPU_ReadMem(4 bytes @ 0xE000EDF0)
 -- CPU_WriteMem(4 bytes @ 0xE0002000) -- CPU_ReadMem(4 bytes @ 0xE000EDFC) -- CPU_ReadMem(4 bytes @ 0xE0001000) (0018ms, 0599ms total)
T74B4 000:805 JLINK_Halt()  returns 0x00 (0000ms, 0599ms total)
T74B4 000:805 JLINK_IsHalted()  returns TRUE (0000ms, 0599ms total)
T74B4 000:805 JLINK_ReadMemU32(0xE000EDF0, 0x0001 Items, ...) -- CPU_ReadMem(4 bytes @ 0xE000EDF0) -- Data:  03 00 03 00  returns 0x01 (0001ms, 0600ms total)
T74B4 000:806 JLINK_WriteU32(0xE000EDF0, 0xA05F0003) -- CPU_WriteMem(4 bytes @ 0xE000EDF0)  returns 0x00 (0000ms, 0600ms total)
T74B4 000:806 JLINK_WriteU32(0xE000EDFC, 0x01000000) -- CPU_WriteMem(4 bytes @ 0xE000EDFC)  returns 0x00 (0001ms, 0601ms total)
T74B4 000:817 JLINK_GetHWStatus(...)  returns 0x00 (0000ms, 0601ms total)
T74B4 000:834 JLINK_GetNumBPUnits(Type = 0xFFFFFF00)  returns 0x06 (0000ms, 0601ms total)
T74B4 000:834 JLINK_GetNumBPUnits(Type = 0xF0)  returns 0x2000 (0000ms, 0601ms total)
T74B4 000:834 JLINK_GetNumWPUnits()  returns 0x04 (0000ms, 0601ms total)
T74B4 000:843 JLINK_GetSpeed()  returns 0xFA0 (0000ms, 0601ms total)
T74B4 000:847 JLINK_ReadMemU32(0xE000E004, 0x0001 Items, ...) -- CPU_ReadMem(4 bytes @ 0xE000E004) -- Data:  01 00 00 00  returns 0x01 (0001ms, 0602ms total)
T74B4 000:848 JLINK_ReadMemU32(0xE000E004, 0x0001 Items, ...) -- CPU_ReadMem(4 bytes @ 0xE000E004) -- Data:  01 00 00 00  returns 0x01 (0000ms, 0602ms total)
T74B4 000:848 JLINK_WriteMem(0xE0001000, 0x001C Bytes, ...) -- Data:  01 00 00 00 00 00 00 00 00 00 00 00 00 00 00 00 ... -- CPU_WriteMem(28 bytes @ 0xE0001000)  returns 0x1C (0001ms, 0603ms total)
T74B4 000:849 JLINK_ReadMem (0xE0001000, 0x001C Bytes, ...) -- CPU_ReadMem(28 bytes @ 0xE0001000) -- Data:  01 00 00 40 00 00 00 00 00 00 00 00 00 00 00 00 ...  returns 0x00 (0001ms, 0604ms total)
T74B4 000:850 JLINK_Halt()  returns 0x00 (0000ms, 0604ms total)
T74B4 000:850 JLINK_IsHalted()  returns TRUE (0000ms, 0604ms total)
T74B4 000:853 JLINK_WriteMem(0x20000000, 0x0164 Bytes, ...) -- Data:  00 BE 0A E0 0D 78 2D 06 68 40 08 24 40 00 00 D3 ... -- CPU_WriteMem(356 bytes @ 0x20000000)  returns 0x164 (0004ms, 0608ms total)
T74B4 000:857 JLINK_WriteReg(R0, 0x08000000)  returns 0x00 (0000ms, 0608ms total)
T74B4 000:857 JLINK_WriteReg(R1, 0x007A1200)  returns 0x00 (0000ms, 0608ms total)
T74B4 000:857 JLINK_WriteReg(R2, 0x00000001)  returns 0x00 (0000ms, 0608ms total)
T74B4 000:857 JLINK_WriteReg(R3, 0x00000000)  returns 0x00 (0000ms, 0608ms total)
T74B4 000:857 JLINK_WriteReg(R4, 0x00000000)  returns 0x00 (0000ms, 0608ms total)
T74B4 000:857 JLINK_WriteReg(R5, 0x00000000)  returns 0x00 (0000ms, 0608ms total)
T74B4 000:857 JLINK_WriteReg(R6, 0x00000000)  returns 0x00 (0000ms, 0608ms total)
T74B4 000:857 JLINK_WriteReg(R7, 0x00000000)  returns 0x00 (0000ms, 0608ms total)
T74B4 000:857 JLINK_WriteReg(R8, 0x00000000)  returns 0x00 (0000ms, 0608ms total)
T74B4 000:857 JLINK_WriteReg(R9, 0x20000160)  returns 0x00 (0000ms, 0608ms total)
T74B4 000:857 JLINK_WriteReg(R10, 0x00000000)  returns 0x00 (0000ms, 0608ms total)
T74B4 000:857 JLINK_WriteReg(R11, 0x00000000)  returns 0x00 (0000ms, 0608ms total)
T74B4 000:857 JLINK_WriteReg(R12, 0x00000000)  returns 0x00 (0000ms, 0608ms total)
T74B4 000:857 JLINK_WriteReg(R13 (SP), 0x20000800)  returns 0x00 (0000ms, 0608ms total)
T74B4 000:857 JLINK_WriteReg(R14, 0x20000001)  returns 0x00 (0000ms, 0608ms total)
T74B4 000:857 JLINK_WriteReg(R15 (PC), 0x20000038)  returns 0x00 (0000ms, 0608ms total)
T74B4 000:858 JLINK_WriteReg(XPSR, 0x01000000)  returns 0x00 (0000ms, 0609ms total)
T74B4 000:858 JLINK_WriteReg(MSP, 0x20000800)  returns 0x00 (0000ms, 0609ms total)
T74B4 000:858 JLINK_WriteReg(PSP, 0x20000800)  returns 0x00 (0000ms, 0609ms total)
T74B4 000:858 JLINK_WriteReg(CFBP, 0x00000000)  returns 0x00 (0000ms, 0609ms total)
T74B4 000:858 JLINK_SetBPEx(Addr = 0x20000000, Type = 0xFFFFFFF2) -- CPU_ReadMem(2 bytes @ 0x20000000)  returns 0x00000001 (0001ms, 0610ms total)
T74B4 000:859 JLINK_Go() -- CPU_WriteMem(2 bytes @ 0x20000000) -- CPU_WriteMem(4 bytes @ 0xE0002008) -- CPU_WriteMem(4 bytes @ 0xE000200C) -- CPU_WriteMem(4 bytes @ 0xE0002010) -- CPU_WriteMem(4 bytes @ 0xE0002014) -- CPU_WriteMem(4 bytes @ 0xE0002018) -- CPU_WriteMem(4 bytes @ 0xE000201C) -- CPU_WriteMem(4 bytes @ 0xE0001004) (0006ms, 0616ms total)
T74B4 000:865 JLINK_IsHalted() -- CPU_ReadMem(2 bytes @ 0x20000000)  returns TRUE (0004ms, 0620ms total)
T74B4 000:869 JLINK_ReadReg(R15 (PC))  returns 0x20000000 (0000ms, 0616ms total)
T74B4 000:869 JLINK_ClrBPEx(BPHandle = 0x00000001)  returns 0x00 (0000ms, 0616ms total)
T74B4 000:869 JLINK_ReadReg(R0)  returns 0x00000000 (0000ms, 0616ms total)
T74B4 000:869 JLINK_WriteReg(R0, 0x08000000)  returns 0x00 (0000ms, 0616ms total)
T74B4 000:869 JLINK_WriteReg(R1, 0x007A1200)  returns 0x00 (0000ms, 0616ms total)
T74B4 000:869 JLINK_WriteReg(R2, 0x00000001)  returns 0x00 (0000ms, 0616ms total)
T74B4 000:869 JLINK_WriteReg(R3, 0x00000000)  returns 0x00 (0000ms, 0616ms total)
T74B4 000:869 JLINK_WriteReg(R4, 0x00000000)  returns 0x00 (0000ms, 0616ms total)
T74B4 000:869 JLINK_WriteReg(R5, 0x00000000)  returns 0x00 (0000ms, 0616ms total)
T74B4 000:869 JLINK_WriteReg(R6, 0x00000000)  returns 0x00 (0000ms, 0616ms total)
T74B4 000:869 JLINK_WriteReg(R7, 0x00000000)  returns 0x00 (0000ms, 0616ms total)
T74B4 000:869 JLINK_WriteReg(R8, 0x00000000)  returns 0x00 (0000ms, 0616ms total)
T74B4 000:869 JLINK_WriteReg(R9, 0x20000160)  returns 0x00 (0000ms, 0616ms total)
T74B4 000:869 JLINK_WriteReg(R10, 0x00000000)  returns 0x00 (0000ms, 0616ms total)
T74B4 000:869 JLINK_WriteReg(R11, 0x00000000)  returns 0x00 (0000ms, 0616ms total)
T74B4 000:869 JLINK_WriteReg(R12, 0x00000000)  returns 0x00 (0000ms, 0616ms total)
T74B4 000:869 JLINK_WriteReg(R13 (SP), 0x20000800)  returns 0x00 (0000ms, 0616ms total)
T74B4 000:869 JLINK_WriteReg(R14, 0x20000001)  returns 0x00 (0000ms, 0616ms total)
T74B4 000:869 JLINK_WriteReg(R15 (PC), 0x2000007C)  returns 0x00 (0000ms, 0616ms total)
T74B4 000:869 JLINK_WriteReg(XPSR, 0x01000000)  returns 0x00 (0000ms, 0616ms total)
T74B4 000:869 JLINK_WriteReg(MSP, 0x20000800)  returns 0x00 (0000ms, 0616ms total)
T74B4 000:869 JLINK_WriteReg(PSP, 0x20000800)  returns 0x00 (0000ms, 0616ms total)
T74B4 000:869 JLINK_WriteReg(CFBP, 0x00000000)  returns 0x00 (0000ms, 0616ms total)
T74B4 000:869 JLINK_SetBPEx(Addr = 0x20000000, Type = 0xFFFFFFF2)  returns 0x00000002 (0000ms, 0616ms total)
T74B4 000:869 JLINK_Go() (0002ms, 0618ms total)
T74B4 000:871 JLINK_IsHalted()  returns FALSE (0000ms, 0618ms total)
T74B4 000:927 JLINK_IsHalted() -- CPU_ReadMem(2 bytes @ 0x20000000)  returns TRUE (0003ms, 0621ms total)
T74B4 000:930 JLINK_ReadReg(R15 (PC))  returns 0x20000000 (0000ms, 0618ms total)
T74B4 000:930 JLINK_ClrBPEx(BPHandle = 0x00000002)  returns 0x00 (0000ms, 0618ms total)
T74B4 000:930 JLINK_ReadReg(R0)  returns 0x00000000 (0000ms, 0618ms total)
T74B4 000:982 JLINK_WriteReg(R0, 0x00000001)  returns 0x00 (0000ms, 0618ms total)
T74B4 000:982 JLINK_WriteReg(R1, 0x007A1200)  returns 0x00 (0000ms, 0618ms total)
T74B4 000:982 JLINK_WriteReg(R2, 0x00000001)  returns 0x00 (0000ms, 0618ms total)
T74B4 000:982 JLINK_WriteReg(R3, 0x00000000)  returns 0x00 (0000ms, 0618ms total)
T74B4 000:982 JLINK_WriteReg(R4, 0x00000000)  returns 0x00 (0000ms, 0618ms total)
T74B4 000:982 JLINK_WriteReg(R5, 0x00000000)  returns 0x00 (0000ms, 0618ms total)
T74B4 000:982 JLINK_WriteReg(R6, 0x00000000)  returns 0x00 (0000ms, 0618ms total)
T74B4 000:982 JLINK_WriteReg(R7, 0x00000000)  returns 0x00 (0000ms, 0618ms total)
T74B4 000:982 JLINK_WriteReg(R8, 0x00000000)  returns 0x00 (0000ms, 0618ms total)
T74B4 000:982 JLINK_WriteReg(R9, 0x20000160)  returns 0x00 (0000ms, 0618ms total)
T74B4 000:982 JLINK_WriteReg(R10, 0x00000000)  returns 0x00 (0000ms, 0618ms total)
T74B4 000:982 JLINK_WriteReg(R11, 0x00000000)  returns 0x00 (0000ms, 0618ms total)
T74B4 000:982 JLINK_WriteReg(R12, 0x00000000)  returns 0x00 (0000ms, 0618ms total)
T74B4 000:982 JLINK_WriteReg(R13 (SP), 0x20000800)  returns 0x00 (0000ms, 0618ms total)
T74B4 000:982 JLINK_WriteReg(R14, 0x20000001)  returns 0x00 (0000ms, 0618ms total)
T74B4 000:982 JLINK_WriteReg(R15 (PC), 0x2000006A)  returns 0x00 (0000ms, 0618ms total)
T74B4 000:982 JLINK_WriteReg(XPSR, 0x01000000)  returns 0x00 (0000ms, 0618ms total)
T74B4 000:982 JLINK_WriteReg(MSP, 0x20000800)  returns 0x00 (0000ms, 0618ms total)
T74B4 000:982 JLINK_WriteReg(PSP, 0x20000800)  returns 0x00 (0000ms, 0618ms total)
T74B4 000:982 JLINK_WriteReg(CFBP, 0x00000000)  returns 0x00 (0000ms, 0618ms total)
T74B4 000:982 JLINK_SetBPEx(Addr = 0x20000000, Type = 0xFFFFFFF2)  returns 0x00000003 (0000ms, 0618ms total)
T74B4 000:982 JLINK_Go() (0002ms, 0620ms total)
T74B4 000:984 JLINK_IsHalted() -- CPU_ReadMem(2 bytes @ 0x20000000)  returns TRUE (0004ms, 0624ms total)
T74B4 000:988 JLINK_ReadReg(R15 (PC))  returns 0x20000000 (0000ms, 0620ms total)
T74B4 000:988 JLINK_ClrBPEx(BPHandle = 0x00000003)  returns 0x00 (0000ms, 0620ms total)
T74B4 000:988 JLINK_ReadReg(R0)  returns 0x00000000 (0000ms, 0620ms total)
T74B4 000:995 JLINK_WriteMem(0x20000000, 0x0164 Bytes, ...) -- Data:  00 BE 0A E0 0D 78 2D 06 68 40 08 24 40 00 00 D3 ... -- CPU_WriteMem(356 bytes @ 0x20000000)  returns 0x164 (0005ms, 0625ms total)
T74B4 001:000 JLINK_WriteReg(R0, 0x08000000)  returns 0x00 (0000ms, 0625ms total)
T74B4 001:000 JLINK_WriteReg(R1, 0x007A1200)  returns 0x00 (0000ms, 0625ms total)
T74B4 001:000 JLINK_WriteReg(R2, 0x00000002)  returns 0x00 (0000ms, 0625ms total)
T74B4 001:000 JLINK_WriteReg(R3, 0x00000000)  returns 0x00 (0000ms, 0625ms total)
T74B4 001:000 JLINK_WriteReg(R4, 0x00000000)  returns 0x00 (0000ms, 0625ms total)
T74B4 001:000 JLINK_WriteReg(R5, 0x00000000)  returns 0x00 (0000ms, 0625ms total)
T74B4 001:000 JLINK_WriteReg(R6, 0x00000000)  returns 0x00 (0000ms, 0625ms total)
T74B4 001:000 JLINK_WriteReg(R7, 0x00000000)  returns 0x00 (0000ms, 0625ms total)
T74B4 001:000 JLINK_WriteReg(R8, 0x00000000)  returns 0x00 (0000ms, 0625ms total)
T74B4 001:000 JLINK_WriteReg(R9, 0x20000160)  returns 0x00 (0000ms, 0625ms total)
T74B4 001:000 JLINK_WriteReg(R10, 0x00000000)  returns 0x00 (0000ms, 0625ms total)
T74B4 001:000 JLINK_WriteReg(R11, 0x00000000)  returns 0x00 (0000ms, 0625ms total)
T74B4 001:000 JLINK_WriteReg(R12, 0x00000000)  returns 0x00 (0000ms, 0625ms total)
T74B4 001:000 JLINK_WriteReg(R13 (SP), 0x20000800)  returns 0x00 (0000ms, 0625ms total)
T74B4 001:000 JLINK_WriteReg(R14, 0x20000001)  returns 0x00 (0000ms, 0625ms total)
T74B4 001:000 JLINK_WriteReg(R15 (PC), 0x20000038)  returns 0x00 (0000ms, 0625ms total)
T74B4 001:000 JLINK_WriteReg(XPSR, 0x01000000)  returns 0x00 (0000ms, 0625ms total)
T74B4 001:000 JLINK_WriteReg(MSP, 0x20000800)  returns 0x00 (0000ms, 0625ms total)
T74B4 001:000 JLINK_WriteReg(PSP, 0x20000800)  returns 0x00 (0000ms, 0625ms total)
T74B4 001:000 JLINK_WriteReg(CFBP, 0x00000000)  returns 0x00 (0000ms, 0625ms total)
T74B4 001:000 JLINK_SetBPEx(Addr = 0x20000000, Type = 0xFFFFFFF2) -- CPU_ReadMem(2 bytes @ 0x20000000)  returns 0x00000004 (0001ms, 0626ms total)
T74B4 001:001 JLINK_Go() -- CPU_WriteMem(2 bytes @ 0x20000000) (0002ms, 0628ms total)
T74B4 001:003 JLINK_IsHalted() -- CPU_ReadMem(2 bytes @ 0x20000000)  returns TRUE (0003ms, 0631ms total)
T74B4 001:006 JLINK_ReadReg(R15 (PC))  returns 0x20000000 (0000ms, 0628ms total)
T74B4 001:006 JLINK_ClrBPEx(BPHandle = 0x00000004)  returns 0x00 (0000ms, 0628ms total)
T74B4 001:006 JLINK_ReadReg(R0)  returns 0x00000000 (0000ms, 0628ms total)
T74B4 001:007 JLINK_WriteMem(0x20000164, 0x0400 Bytes, ...) -- Data:  30 0B 00 20 5D 47 00 08 09 2A 00 08 67 47 00 08 ... -- CPU_WriteMem(1024 bytes @ 0x20000164)  returns 0x400 (0013ms, 0641ms total)
T74B4 001:020 JLINK_WriteReg(R0, 0x08000000)  returns 0x00 (0000ms, 0641ms total)
T74B4 001:020 JLINK_WriteReg(R1, 0x00000400)  returns 0x00 (0000ms, 0641ms total)
T74B4 001:020 JLINK_WriteReg(R2, 0x20000164)  returns 0x00 (0000ms, 0641ms total)
T74B4 001:020 JLINK_WriteReg(R3, 0x00000000)  returns 0x00 (0000ms, 0641ms total)
T74B4 001:020 JLINK_WriteReg(R4, 0x00000000)  returns 0x00 (0000ms, 0641ms total)
T74B4 001:020 JLINK_WriteReg(R5, 0x00000000)  returns 0x00 (0000ms, 0641ms total)
T74B4 001:020 JLINK_WriteReg(R6, 0x00000000)  returns 0x00 (0000ms, 0641ms total)
T74B4 001:020 JLINK_WriteReg(R7, 0x00000000)  returns 0x00 (0000ms, 0641ms total)
T74B4 001:020 JLINK_WriteReg(R8, 0x00000000)  returns 0x00 (0000ms, 0641ms total)
T74B4 001:020 JLINK_WriteReg(R9, 0x20000160)  returns 0x00 (0000ms, 0641ms total)
T74B4 001:020 JLINK_WriteReg(R10, 0x00000000)  returns 0x00 (0000ms, 0641ms total)
T74B4 001:020 JLINK_WriteReg(R11, 0x00000000)  returns 0x00 (0000ms, 0641ms total)
T74B4 001:020 JLINK_WriteReg(R12, 0x00000000)  returns 0x00 (0000ms, 0641ms total)
T74B4 001:020 JLINK_WriteReg(R13 (SP), 0x20000800)  returns 0x00 (0000ms, 0641ms total)
T74B4 001:020 JLINK_WriteReg(R14, 0x20000001)  returns 0x00 (0000ms, 0641ms total)
T74B4 001:020 JLINK_WriteReg(R15 (PC), 0x200000F4)  returns 0x00 (0000ms, 0641ms total)
T74B4 001:020 JLINK_WriteReg(XPSR, 0x01000000)  returns 0x00 (0000ms, 0641ms total)
T74B4 001:020 JLINK_WriteReg(MSP, 0x20000800)  returns 0x00 (0000ms, 0641ms total)
T74B4 001:020 JLINK_WriteReg(PSP, 0x20000800)  returns 0x00 (0000ms, 0641ms total)
T74B4 001:020 JLINK_WriteReg(CFBP, 0x00000000)  returns 0x00 (0000ms, 0641ms total)
T74B4 001:020 JLINK_SetBPEx(Addr = 0x20000000, Type = 0xFFFFFFF2)  returns 0x00000005 (0000ms, 0641ms total)
T74B4 001:020 JLINK_Go() (0001ms, 0642ms total)
T74B4 001:021 JLINK_IsHalted()  returns FALSE (0001ms, 0643ms total)
T74B4 001:031 JLINK_IsHalted()  returns FALSE (0001ms, 0643ms total)
T74B4 001:033 JLINK_IsHalted()  returns FALSE (0000ms, 0642ms total)
T74B4 001:036 JLINK_IsHalted()  returns FALSE (0000ms, 0642ms total)
T74B4 001:044 JLINK_IsHalted()  returns FALSE (0000ms, 0642ms total)
T74B4 001:046 JLINK_IsHalted()  returns FALSE (0000ms, 0642ms total)
T74B4 001:048 JLINK_IsHalted()  returns FALSE (0000ms, 0642ms total)
T74B4 001:050 JLINK_IsHalted()  returns FALSE (0000ms, 0642ms total)
T74B4 001:052 JLINK_IsHalted()  returns FALSE (0000ms, 0642ms total)
T74B4 001:053 JLINK_IsHalted() -- CPU_ReadMem(2 bytes @ 0x20000000)  returns TRUE (0004ms, 0646ms total)
T74B4 001:057 JLINK_ReadReg(R15 (PC))  returns 0x20000000 (0000ms, 0642ms total)
T74B4 001:057 JLINK_ClrBPEx(BPHandle = 0x00000005)  returns 0x00 (0000ms, 0642ms total)
T74B4 001:057 JLINK_ReadReg(R0)  returns 0x00000000 (0000ms, 0642ms total)
T74B4 001:057 JLINK_WriteMem(0x20000164, 0x0400 Bytes, ...) -- Data:  1F FF 07 46 21 46 04 F0 A7 FE 06 46 31 46 20 46 ... -- CPU_WriteMem(1024 bytes @ 0x20000164)  returns 0x400 (0013ms, 0655ms total)
T74B4 001:070 JLINK_WriteReg(R0, 0x08000400)  returns 0x00 (0000ms, 0655ms total)
T74B4 001:070 JLINK_WriteReg(R1, 0x00000400)  returns 0x00 (0000ms, 0655ms total)
T74B4 001:070 JLINK_WriteReg(R2, 0x20000164)  returns 0x00 (0000ms, 0655ms total)
T74B4 001:070 JLINK_WriteReg(R3, 0x00000000)  returns 0x00 (0000ms, 0655ms total)
T74B4 001:070 JLINK_WriteReg(R4, 0x00000000)  returns 0x00 (0000ms, 0655ms total)
T74B4 001:070 JLINK_WriteReg(R5, 0x00000000)  returns 0x00 (0000ms, 0655ms total)
T74B4 001:070 JLINK_WriteReg(R6, 0x00000000)  returns 0x00 (0000ms, 0655ms total)
T74B4 001:070 JLINK_WriteReg(R7, 0x00000000)  returns 0x00 (0000ms, 0655ms total)
T74B4 001:070 JLINK_WriteReg(R8, 0x00000000)  returns 0x00 (0000ms, 0655ms total)
T74B4 001:070 JLINK_WriteReg(R9, 0x20000160)  returns 0x00 (0000ms, 0655ms total)
T74B4 001:070 JLINK_WriteReg(R10, 0x00000000)  returns 0x00 (0000ms, 0655ms total)
T74B4 001:070 JLINK_WriteReg(R11, 0x00000000)  returns 0x00 (0000ms, 0655ms total)
T74B4 001:070 JLINK_WriteReg(R12, 0x00000000)  returns 0x00 (0000ms, 0655ms total)
T74B4 001:070 JLINK_WriteReg(R13 (SP), 0x20000800)  returns 0x00 (0000ms, 0655ms total)
T74B4 001:070 JLINK_WriteReg(R14, 0x20000001)  returns 0x00 (0000ms, 0655ms total)
T74B4 001:070 JLINK_WriteReg(R15 (PC), 0x200000F4)  returns 0x00 (0000ms, 0655ms total)
T74B4 001:070 JLINK_WriteReg(XPSR, 0x01000000)  returns 0x00 (0000ms, 0655ms total)
T74B4 001:070 JLINK_WriteReg(MSP, 0x20000800)  returns 0x00 (0000ms, 0655ms total)
T74B4 001:070 JLINK_WriteReg(PSP, 0x20000800)  returns 0x00 (0000ms, 0655ms total)
T74B4 001:070 JLINK_WriteReg(CFBP, 0x00000000)  returns 0x00 (0000ms, 0655ms total)
T74B4 001:070 JLINK_SetBPEx(Addr = 0x20000000, Type = 0xFFFFFFF2)  returns 0x00000006 (0000ms, 0655ms total)
T74B4 001:070 JLINK_Go() (0002ms, 0657ms total)
T74B4 001:072 JLINK_IsHalted()  returns FALSE (0001ms, 0658ms total)
T74B4 001:074 JLINK_IsHalted()  returns FALSE (0000ms, 0657ms total)
T74B4 001:076 JLINK_IsHalted()  returns FALSE (0001ms, 0658ms total)
T74B4 001:079 JLINK_IsHalted()  returns FALSE (0000ms, 0657ms total)
T74B4 001:081 JLINK_IsHalted()  returns FALSE (0000ms, 0657ms total)
T74B4 001:083 JLINK_IsHalted()  returns FALSE (0000ms, 0657ms total)
T74B4 001:085 JLINK_IsHalted()  returns FALSE (0001ms, 0658ms total)
T74B4 001:088 JLINK_IsHalted()  returns FALSE (0001ms, 0658ms total)
T74B4 001:091 JLINK_IsHalted()  returns FALSE (0000ms, 0657ms total)
T74B4 001:093 JLINK_IsHalted()  returns FALSE (0000ms, 0657ms total)
T74B4 001:095 JLINK_IsHalted()  returns FALSE (0001ms, 0658ms total)
T74B4 001:097 JLINK_IsHalted()  returns FALSE (0000ms, 0657ms total)
T74B4 001:099 JLINK_IsHalted()  returns FALSE (0000ms, 0657ms total)
T74B4 001:100 JLINK_IsHalted()  returns FALSE (0000ms, 0657ms total)
T74B4 001:102 JLINK_IsHalted()  returns FALSE (0000ms, 0657ms total)
T74B4 001:103 JLINK_IsHalted() -- CPU_ReadMem(2 bytes @ 0x20000000)  returns TRUE (0004ms, 0661ms total)
T74B4 001:107 JLINK_ReadReg(R15 (PC))  returns 0x20000000 (0000ms, 0657ms total)
T74B4 001:107 JLINK_ClrBPEx(BPHandle = 0x00000006)  returns 0x00 (0000ms, 0657ms total)
T74B4 001:107 JLINK_ReadReg(R0)  returns 0x00000000 (0000ms, 0657ms total)
T74B4 001:107 JLINK_WriteMem(0x20000164, 0x0400 Bytes, ...) -- Data:  04 F0 96 FA 2A 46 33 46 CD E9 00 01 04 F0 A4 F9 ... -- CPU_WriteMem(1024 bytes @ 0x20000164)  returns 0x400 (0013ms, 0670ms total)
T74B4 001:120 JLINK_WriteReg(R0, 0x08000800)  returns 0x00 (0000ms, 0670ms total)
T74B4 001:120 JLINK_WriteReg(R1, 0x00000400)  returns 0x00 (0000ms, 0670ms total)
T74B4 001:120 JLINK_WriteReg(R2, 0x20000164)  returns 0x00 (0000ms, 0670ms total)
T74B4 001:120 JLINK_WriteReg(R3, 0x00000000)  returns 0x00 (0000ms, 0670ms total)
T74B4 001:120 JLINK_WriteReg(R4, 0x00000000)  returns 0x00 (0000ms, 0670ms total)
T74B4 001:120 JLINK_WriteReg(R5, 0x00000000)  returns 0x00 (0000ms, 0670ms total)
T74B4 001:120 JLINK_WriteReg(R6, 0x00000000)  returns 0x00 (0000ms, 0670ms total)
T74B4 001:120 JLINK_WriteReg(R7, 0x00000000)  returns 0x00 (0000ms, 0670ms total)
T74B4 001:120 JLINK_WriteReg(R8, 0x00000000)  returns 0x00 (0000ms, 0670ms total)
T74B4 001:120 JLINK_WriteReg(R9, 0x20000160)  returns 0x00 (0000ms, 0670ms total)
T74B4 001:120 JLINK_WriteReg(R10, 0x00000000)  returns 0x00 (0000ms, 0670ms total)
T74B4 001:120 JLINK_WriteReg(R11, 0x00000000)  returns 0x00 (0000ms, 0670ms total)
T74B4 001:120 JLINK_WriteReg(R12, 0x00000000)  returns 0x00 (0000ms, 0670ms total)
T74B4 001:120 JLINK_WriteReg(R13 (SP), 0x20000800)  returns 0x00 (0000ms, 0670ms total)
T74B4 001:120 JLINK_WriteReg(R14, 0x20000001)  returns 0x00 (0000ms, 0670ms total)
T74B4 001:120 JLINK_WriteReg(R15 (PC), 0x200000F4)  returns 0x00 (0000ms, 0670ms total)
T74B4 001:120 JLINK_WriteReg(XPSR, 0x01000000)  returns 0x00 (0000ms, 0670ms total)
T74B4 001:120 JLINK_WriteReg(MSP, 0x20000800)  returns 0x00 (0000ms, 0670ms total)
T74B4 001:120 JLINK_WriteReg(PSP, 0x20000800)  returns 0x00 (0000ms, 0670ms total)
T74B4 001:120 JLINK_WriteReg(CFBP, 0x00000000)  returns 0x00 (0000ms, 0670ms total)
T74B4 001:120 JLINK_SetBPEx(Addr = 0x20000000, Type = 0xFFFFFFF2)  returns 0x00000007 (0000ms, 0670ms total)
T74B4 001:120 JLINK_Go() (0002ms, 0672ms total)
T74B4 001:122 JLINK_IsHalted()  returns FALSE (0000ms, 0672ms total)
T74B4 001:124 JLINK_IsHalted()  returns FALSE (0000ms, 0672ms total)
T74B4 001:126 JLINK_IsHalted()  returns FALSE (0000ms, 0672ms total)
T74B4 001:128 JLINK_IsHalted()  returns FALSE (0000ms, 0672ms total)
T74B4 001:130 JLINK_IsHalted()  returns FALSE (0000ms, 0672ms total)
T74B4 001:132 JLINK_IsHalted()  returns FALSE (0000ms, 0672ms total)
T74B4 001:134 JLINK_IsHalted()  returns FALSE (0001ms, 0673ms total)
T74B4 001:136 JLINK_IsHalted()  returns FALSE (0000ms, 0672ms total)
T74B4 001:138 JLINK_IsHalted()  returns FALSE (0000ms, 0672ms total)
T74B4 001:139 JLINK_IsHalted()  returns FALSE (0001ms, 0673ms total)
T74B4 001:141 JLINK_IsHalted()  returns FALSE (0000ms, 0672ms total)
T74B4 001:143 JLINK_IsHalted()  returns FALSE (0000ms, 0672ms total)
T74B4 001:144 JLINK_IsHalted()  returns FALSE (0001ms, 0673ms total)
T74B4 001:146 JLINK_IsHalted()  returns FALSE (0000ms, 0672ms total)
T74B4 001:148 JLINK_IsHalted()  returns FALSE (0000ms, 0672ms total)
T74B4 001:152 JLINK_IsHalted()  returns FALSE (0001ms, 0673ms total)
T74B4 001:154 JLINK_IsHalted() -- CPU_ReadMem(2 bytes @ 0x20000000)  returns TRUE (0004ms, 0676ms total)
T74B4 001:158 JLINK_ReadReg(R15 (PC))  returns 0x20000000 (0000ms, 0672ms total)
T74B4 001:158 JLINK_ClrBPEx(BPHandle = 0x00000007)  returns 0x00 (0000ms, 0672ms total)
T74B4 001:158 JLINK_ReadReg(R0)  returns 0x00000000 (0000ms, 0672ms total)
T74B4 001:158 JLINK_WriteMem(0x20000164, 0x0400 Bytes, ...) -- Data:  80 1C 01 B2 E1 82 CF 48 FF F7 8B FD 00 20 CB 49 ... -- CPU_WriteMem(1024 bytes @ 0x20000164)  returns 0x400 (0012ms, 0684ms total)
T74B4 001:170 JLINK_WriteReg(R0, 0x08000C00)  returns 0x00 (0000ms, 0684ms total)
T74B4 001:170 JLINK_WriteReg(R1, 0x00000400)  returns 0x00 (0000ms, 0684ms total)
T74B4 001:170 JLINK_WriteReg(R2, 0x20000164)  returns 0x00 (0000ms, 0684ms total)
T74B4 001:170 JLINK_WriteReg(R3, 0x00000000)  returns 0x00 (0000ms, 0684ms total)
T74B4 001:170 JLINK_WriteReg(R4, 0x00000000)  returns 0x00 (0000ms, 0684ms total)
T74B4 001:170 JLINK_WriteReg(R5, 0x00000000)  returns 0x00 (0000ms, 0684ms total)
T74B4 001:170 JLINK_WriteReg(R6, 0x00000000)  returns 0x00 (0000ms, 0684ms total)
T74B4 001:170 JLINK_WriteReg(R7, 0x00000000)  returns 0x00 (0000ms, 0684ms total)
T74B4 001:170 JLINK_WriteReg(R8, 0x00000000)  returns 0x00 (0000ms, 0684ms total)
T74B4 001:170 JLINK_WriteReg(R9, 0x20000160)  returns 0x00 (0000ms, 0684ms total)
T74B4 001:170 JLINK_WriteReg(R10, 0x00000000)  returns 0x00 (0000ms, 0684ms total)
T74B4 001:170 JLINK_WriteReg(R11, 0x00000000)  returns 0x00 (0000ms, 0684ms total)
T74B4 001:170 JLINK_WriteReg(R12, 0x00000000)  returns 0x00 (0000ms, 0684ms total)
T74B4 001:170 JLINK_WriteReg(R13 (SP), 0x20000800)  returns 0x00 (0000ms, 0684ms total)
T74B4 001:170 JLINK_WriteReg(R14, 0x20000001)  returns 0x00 (0000ms, 0684ms total)
T74B4 001:170 JLINK_WriteReg(R15 (PC), 0x200000F4)  returns 0x00 (0000ms, 0684ms total)
T74B4 001:170 JLINK_WriteReg(XPSR, 0x01000000)  returns 0x00 (0000ms, 0684ms total)
T74B4 001:170 JLINK_WriteReg(MSP, 0x20000800)  returns 0x00 (0000ms, 0684ms total)
T74B4 001:170 JLINK_WriteReg(PSP, 0x20000800)  returns 0x00 (0000ms, 0684ms total)
T74B4 001:170 JLINK_WriteReg(CFBP, 0x00000000)  returns 0x00 (0000ms, 0684ms total)
T74B4 001:170 JLINK_SetBPEx(Addr = 0x20000000, Type = 0xFFFFFFF2)  returns 0x00000008 (0000ms, 0684ms total)
T74B4 001:170 JLINK_Go() (0003ms, 0687ms total)
T74B4 001:173 JLINK_IsHalted()  returns FALSE (0000ms, 0687ms total)
T74B4 001:175 JLINK_IsHalted()  returns FALSE (0000ms, 0687ms total)
T74B4 001:177 JLINK_IsHalted()  returns FALSE (0000ms, 0687ms total)
T74B4 001:179 JLINK_IsHalted()  returns FALSE (0000ms, 0687ms total)
T74B4 001:181 JLINK_IsHalted()  returns FALSE (0001ms, 0688ms total)
T74B4 001:184 JLINK_IsHalted()  returns FALSE (0000ms, 0687ms total)
T74B4 001:186 JLINK_IsHalted()  returns FALSE (0000ms, 0687ms total)
T74B4 001:187 JLINK_IsHalted()  returns FALSE (0001ms, 0688ms total)
T74B4 001:189 JLINK_IsHalted()  returns FALSE (0001ms, 0688ms total)
T74B4 001:192 JLINK_IsHalted()  returns FALSE (0000ms, 0687ms total)
T74B4 001:194 JLINK_IsHalted()  returns FALSE (0000ms, 0687ms total)
T74B4 001:196 JLINK_IsHalted()  returns FALSE (0001ms, 0688ms total)
T74B4 001:198 JLINK_IsHalted()  returns FALSE (0000ms, 0687ms total)
T74B4 001:200 JLINK_IsHalted()  returns FALSE (0000ms, 0687ms total)
T74B4 001:202 JLINK_IsHalted()  returns FALSE (0000ms, 0687ms total)
T74B4 001:204 JLINK_IsHalted() -- CPU_ReadMem(2 bytes @ 0x20000000)  returns TRUE (0003ms, 0690ms total)
T74B4 001:207 JLINK_ReadReg(R15 (PC))  returns 0x20000000 (0000ms, 0687ms total)
T74B4 001:207 JLINK_ClrBPEx(BPHandle = 0x00000008)  returns 0x00 (0000ms, 0687ms total)
T74B4 001:207 JLINK_ReadReg(R0)  returns 0x00000000 (0000ms, 0687ms total)
T74B4 001:207 JLINK_WriteMem(0x20000164, 0x0400 Bytes, ...) -- Data:  00 B5 06 48 FF F7 F5 FF 00 BD 00 00 D0 00 00 20 ... -- CPU_WriteMem(1024 bytes @ 0x20000164)  returns 0x400 (0013ms, 0700ms total)
T74B4 001:220 JLINK_WriteReg(R0, 0x08001000)  returns 0x00 (0000ms, 0700ms total)
T74B4 001:220 JLINK_WriteReg(R1, 0x00000400)  returns 0x00 (0000ms, 0700ms total)
T74B4 001:220 JLINK_WriteReg(R2, 0x20000164)  returns 0x00 (0000ms, 0700ms total)
T74B4 001:220 JLINK_WriteReg(R3, 0x00000000)  returns 0x00 (0000ms, 0700ms total)
T74B4 001:220 JLINK_WriteReg(R4, 0x00000000)  returns 0x00 (0000ms, 0700ms total)
T74B4 001:220 JLINK_WriteReg(R5, 0x00000000)  returns 0x00 (0000ms, 0700ms total)
T74B4 001:220 JLINK_WriteReg(R6, 0x00000000)  returns 0x00 (0000ms, 0700ms total)
T74B4 001:220 JLINK_WriteReg(R7, 0x00000000)  returns 0x00 (0000ms, 0700ms total)
T74B4 001:220 JLINK_WriteReg(R8, 0x00000000)  returns 0x00 (0000ms, 0700ms total)
T74B4 001:220 JLINK_WriteReg(R9, 0x20000160)  returns 0x00 (0000ms, 0700ms total)
T74B4 001:220 JLINK_WriteReg(R10, 0x00000000)  returns 0x00 (0000ms, 0700ms total)
T74B4 001:220 JLINK_WriteReg(R11, 0x00000000)  returns 0x00 (0000ms, 0700ms total)
T74B4 001:220 JLINK_WriteReg(R12, 0x00000000)  returns 0x00 (0000ms, 0700ms total)
T74B4 001:220 JLINK_WriteReg(R13 (SP), 0x20000800)  returns 0x00 (0000ms, 0700ms total)
T74B4 001:220 JLINK_WriteReg(R14, 0x20000001)  returns 0x00 (0000ms, 0700ms total)
T74B4 001:220 JLINK_WriteReg(R15 (PC), 0x200000F4)  returns 0x00 (0000ms, 0700ms total)
T74B4 001:220 JLINK_WriteReg(XPSR, 0x01000000)  returns 0x00 (0000ms, 0700ms total)
T74B4 001:220 JLINK_WriteReg(MSP, 0x20000800)  returns 0x00 (0000ms, 0700ms total)
T74B4 001:220 JLINK_WriteReg(PSP, 0x20000800)  returns 0x00 (0000ms, 0700ms total)
T74B4 001:220 JLINK_WriteReg(CFBP, 0x00000000)  returns 0x00 (0000ms, 0700ms total)
T74B4 001:220 JLINK_SetBPEx(Addr = 0x20000000, Type = 0xFFFFFFF2)  returns 0x00000009 (0000ms, 0700ms total)
T74B4 001:220 JLINK_Go() (0002ms, 0702ms total)
T74B4 001:222 JLINK_IsHalted()  returns FALSE (0000ms, 0702ms total)
T74B4 001:225 JLINK_IsHalted()  returns FALSE (0000ms, 0702ms total)
T74B4 001:227 JLINK_IsHalted()  returns FALSE (0000ms, 0702ms total)
T74B4 001:229 JLINK_IsHalted()  returns FALSE (0000ms, 0702ms total)
T74B4 001:231 JLINK_IsHalted()  returns FALSE (0000ms, 0702ms total)
T74B4 001:232 JLINK_IsHalted()  returns FALSE (0000ms, 0702ms total)
T74B4 001:234 JLINK_IsHalted()  returns FALSE (0000ms, 0702ms total)
T74B4 001:236 JLINK_IsHalted()  returns FALSE (0000ms, 0702ms total)
T74B4 001:238 JLINK_IsHalted()  returns FALSE (0001ms, 0703ms total)
T74B4 001:240 JLINK_IsHalted()  returns FALSE (0001ms, 0703ms total)
T74B4 001:242 JLINK_IsHalted()  returns FALSE (0001ms, 0703ms total)
T74B4 001:244 JLINK_IsHalted()  returns FALSE (0001ms, 0703ms total)
T74B4 001:246 JLINK_IsHalted()  returns FALSE (0000ms, 0702ms total)
T74B4 001:248 JLINK_IsHalted()  returns FALSE (0000ms, 0702ms total)
T74B4 001:250 JLINK_IsHalted()  returns FALSE (0000ms, 0702ms total)
T74B4 001:251 JLINK_IsHalted()  returns FALSE (0000ms, 0702ms total)
T74B4 001:253 JLINK_IsHalted() -- CPU_ReadMem(2 bytes @ 0x20000000)  returns TRUE (0003ms, 0705ms total)
T74B4 001:256 JLINK_ReadReg(R15 (PC))  returns 0x20000000 (0000ms, 0702ms total)
T74B4 001:256 JLINK_ClrBPEx(BPHandle = 0x00000009)  returns 0x00 (0000ms, 0702ms total)
T74B4 001:256 JLINK_ReadReg(R0)  returns 0x00000000 (0000ms, 0702ms total)
T74B4 001:272 JLINK_WriteMem(0x20000164, 0x0400 Bytes, ...) -- Data:  00 BD 10 B5 FF F7 4E FF FF F7 68 FF 10 BD 00 00 ... -- CPU_WriteMem(1024 bytes @ 0x20000164)  returns 0x400 (0012ms, 0714ms total)
T74B4 001:284 JLINK_WriteReg(R0, 0x08001400)  returns 0x00 (0000ms, 0714ms total)
T74B4 001:284 JLINK_WriteReg(R1, 0x00000400)  returns 0x00 (0000ms, 0714ms total)
T74B4 001:284 JLINK_WriteReg(R2, 0x20000164)  returns 0x00 (0000ms, 0714ms total)
T74B4 001:284 JLINK_WriteReg(R3, 0x00000000)  returns 0x00 (0000ms, 0714ms total)
T74B4 001:284 JLINK_WriteReg(R4, 0x00000000)  returns 0x00 (0000ms, 0714ms total)
T74B4 001:284 JLINK_WriteReg(R5, 0x00000000)  returns 0x00 (0000ms, 0714ms total)
T74B4 001:284 JLINK_WriteReg(R6, 0x00000000)  returns 0x00 (0000ms, 0714ms total)
T74B4 001:284 JLINK_WriteReg(R7, 0x00000000)  returns 0x00 (0000ms, 0714ms total)
T74B4 001:284 JLINK_WriteReg(R8, 0x00000000)  returns 0x00 (0000ms, 0714ms total)
T74B4 001:284 JLINK_WriteReg(R9, 0x20000160)  returns 0x00 (0000ms, 0714ms total)
T74B4 001:284 JLINK_WriteReg(R10, 0x00000000)  returns 0x00 (0000ms, 0714ms total)
T74B4 001:284 JLINK_WriteReg(R11, 0x00000000)  returns 0x00 (0000ms, 0714ms total)
T74B4 001:284 JLINK_WriteReg(R12, 0x00000000)  returns 0x00 (0000ms, 0714ms total)
T74B4 001:284 JLINK_WriteReg(R13 (SP), 0x20000800)  returns 0x00 (0000ms, 0714ms total)
T74B4 001:284 JLINK_WriteReg(R14, 0x20000001)  returns 0x00 (0000ms, 0714ms total)
T74B4 001:284 JLINK_WriteReg(R15 (PC), 0x200000F4)  returns 0x00 (0000ms, 0714ms total)
T74B4 001:284 JLINK_WriteReg(XPSR, 0x01000000)  returns 0x00 (0000ms, 0714ms total)
T74B4 001:284 JLINK_WriteReg(MSP, 0x20000800)  returns 0x00 (0000ms, 0714ms total)
T74B4 001:284 JLINK_WriteReg(PSP, 0x20000800)  returns 0x00 (0000ms, 0714ms total)
T74B4 001:284 JLINK_WriteReg(CFBP, 0x00000000)  returns 0x00 (0000ms, 0714ms total)
T74B4 001:284 JLINK_SetBPEx(Addr = 0x20000000, Type = 0xFFFFFFF2)  returns 0x0000000A (0000ms, 0714ms total)
T74B4 001:284 JLINK_Go() (0002ms, 0716ms total)
T74B4 001:286 JLINK_IsHalted()  returns FALSE (0001ms, 0717ms total)
T74B4 001:292 JLINK_IsHalted()  returns FALSE (0001ms, 0717ms total)
T74B4 001:295 JLINK_IsHalted()  returns FALSE (0000ms, 0716ms total)
T74B4 001:297 JLINK_IsHalted()  returns FALSE (0000ms, 0716ms total)
T74B4 001:298 JLINK_IsHalted()  returns FALSE (0000ms, 0716ms total)
T74B4 001:300 JLINK_IsHalted()  returns FALSE (0000ms, 0716ms total)
T74B4 001:302 JLINK_IsHalted()  returns FALSE (0000ms, 0716ms total)
T74B4 001:303 JLINK_IsHalted()  returns FALSE (0000ms, 0716ms total)
T74B4 001:305 JLINK_IsHalted()  returns FALSE (0000ms, 0716ms total)
T74B4 001:307 JLINK_IsHalted()  returns FALSE (0000ms, 0716ms total)
T74B4 001:308 JLINK_IsHalted()  returns FALSE (0001ms, 0717ms total)
T74B4 001:310 JLINK_IsHalted()  returns FALSE (0000ms, 0716ms total)
T74B4 001:312 JLINK_IsHalted()  returns FALSE (0000ms, 0716ms total)
T74B4 001:313 JLINK_IsHalted()  returns FALSE (0001ms, 0717ms total)
T74B4 001:315 JLINK_IsHalted()  returns FALSE (0001ms, 0717ms total)
T74B4 001:317 JLINK_IsHalted() -- CPU_ReadMem(2 bytes @ 0x20000000)  returns TRUE (0004ms, 0720ms total)
T74B4 001:321 JLINK_ReadReg(R15 (PC))  returns 0x20000000 (0000ms, 0716ms total)
T74B4 001:321 JLINK_ClrBPEx(BPHandle = 0x0000000A)  returns 0x00 (0000ms, 0716ms total)
T74B4 001:321 JLINK_ReadReg(R0)  returns 0x00000000 (0000ms, 0716ms total)
T74B4 001:321 JLINK_WriteMem(0x20000164, 0x0400 Bytes, ...) -- Data:  08 A0 02 48 00 90 16 E0 00 00 01 08 00 04 01 08 ... -- CPU_WriteMem(1024 bytes @ 0x20000164)  returns 0x400 (0013ms, 0729ms total)
T74B4 001:334 JLINK_WriteReg(R0, 0x08001800)  returns 0x00 (0000ms, 0729ms total)
T74B4 001:334 JLINK_WriteReg(R1, 0x00000400)  returns 0x00 (0000ms, 0729ms total)
T74B4 001:334 JLINK_WriteReg(R2, 0x20000164)  returns 0x00 (0000ms, 0729ms total)
T74B4 001:334 JLINK_WriteReg(R3, 0x00000000)  returns 0x00 (0000ms, 0729ms total)
T74B4 001:334 JLINK_WriteReg(R4, 0x00000000)  returns 0x00 (0000ms, 0729ms total)
T74B4 001:334 JLINK_WriteReg(R5, 0x00000000)  returns 0x00 (0000ms, 0729ms total)
T74B4 001:334 JLINK_WriteReg(R6, 0x00000000)  returns 0x00 (0000ms, 0729ms total)
T74B4 001:334 JLINK_WriteReg(R7, 0x00000000)  returns 0x00 (0000ms, 0729ms total)
T74B4 001:334 JLINK_WriteReg(R8, 0x00000000)  returns 0x00 (0000ms, 0729ms total)
T74B4 001:334 JLINK_WriteReg(R9, 0x20000160)  returns 0x00 (0000ms, 0729ms total)
T74B4 001:334 JLINK_WriteReg(R10, 0x00000000)  returns 0x00 (0000ms, 0729ms total)
T74B4 001:334 JLINK_WriteReg(R11, 0x00000000)  returns 0x00 (0000ms, 0729ms total)
T74B4 001:334 JLINK_WriteReg(R12, 0x00000000)  returns 0x00 (0000ms, 0729ms total)
T74B4 001:334 JLINK_WriteReg(R13 (SP), 0x20000800)  returns 0x00 (0000ms, 0729ms total)
T74B4 001:334 JLINK_WriteReg(R14, 0x20000001)  returns 0x00 (0000ms, 0729ms total)
T74B4 001:334 JLINK_WriteReg(R15 (PC), 0x200000F4)  returns 0x00 (0000ms, 0729ms total)
T74B4 001:334 JLINK_WriteReg(XPSR, 0x01000000)  returns 0x00 (0000ms, 0729ms total)
T74B4 001:334 JLINK_WriteReg(MSP, 0x20000800)  returns 0x00 (0000ms, 0729ms total)
T74B4 001:334 JLINK_WriteReg(PSP, 0x20000800)  returns 0x00 (0000ms, 0729ms total)
T74B4 001:334 JLINK_WriteReg(CFBP, 0x00000000)  returns 0x00 (0000ms, 0729ms total)
T74B4 001:334 JLINK_SetBPEx(Addr = 0x20000000, Type = 0xFFFFFFF2)  returns 0x0000000B (0000ms, 0729ms total)
T74B4 001:334 JLINK_Go() (0002ms, 0731ms total)
T74B4 001:336 JLINK_IsHalted()  returns FALSE (0000ms, 0731ms total)
T74B4 001:338 JLINK_IsHalted()  returns FALSE (0000ms, 0731ms total)
T74B4 001:340 JLINK_IsHalted()  returns FALSE (0000ms, 0731ms total)
T74B4 001:341 JLINK_IsHalted()  returns FALSE (0000ms, 0731ms total)
T74B4 001:343 JLINK_IsHalted()  returns FALSE (0000ms, 0731ms total)
T74B4 001:344 JLINK_IsHalted()  returns FALSE (0000ms, 0731ms total)
T74B4 001:346 JLINK_IsHalted()  returns FALSE (0000ms, 0731ms total)
T74B4 001:347 JLINK_IsHalted()  returns FALSE (0000ms, 0731ms total)
T74B4 001:349 JLINK_IsHalted()  returns FALSE (0000ms, 0731ms total)
T74B4 001:350 JLINK_IsHalted()  returns FALSE (0000ms, 0731ms total)
T74B4 001:352 JLINK_IsHalted()  returns FALSE (0000ms, 0731ms total)
T74B4 001:353 JLINK_IsHalted()  returns FALSE (0000ms, 0731ms total)
T74B4 001:355 JLINK_IsHalted()  returns FALSE (0000ms, 0731ms total)
T74B4 001:356 JLINK_IsHalted()  returns FALSE (0000ms, 0731ms total)
T74B4 001:358 JLINK_IsHalted()  returns FALSE (0000ms, 0731ms total)
T74B4 001:359 JLINK_IsHalted()  returns FALSE (0000ms, 0731ms total)
T74B4 001:361 JLINK_IsHalted()  returns FALSE (0000ms, 0731ms total)
T74B4 001:362 JLINK_IsHalted()  returns FALSE (0000ms, 0731ms total)
T74B4 001:364 JLINK_IsHalted()  returns FALSE (0000ms, 0731ms total)
T74B4 001:365 JLINK_IsHalted()  returns FALSE (0000ms, 0731ms total)
T74B4 001:367 JLINK_IsHalted() -- CPU_ReadMem(2 bytes @ 0x20000000)  returns TRUE (0003ms, 0734ms total)
T74B4 001:370 JLINK_ReadReg(R15 (PC))  returns 0x20000000 (0000ms, 0731ms total)
T74B4 001:370 JLINK_ClrBPEx(BPHandle = 0x0000000B)  returns 0x00 (0000ms, 0731ms total)
T74B4 001:370 JLINK_ReadReg(R0)  returns 0x00000000 (0000ms, 0731ms total)
T74B4 001:371 JLINK_WriteMem(0x20000164, 0x0400 Bytes, ...) -- Data:  FF F7 A7 FF 07 46 30 46 FF F7 80 FF 30 46 FF F7 ... -- CPU_WriteMem(1024 bytes @ 0x20000164)  returns 0x400 (0012ms, 0743ms total)
T74B4 001:383 JLINK_WriteReg(R0, 0x08001C00)  returns 0x00 (0000ms, 0743ms total)
T74B4 001:383 JLINK_WriteReg(R1, 0x00000400)  returns 0x00 (0000ms, 0743ms total)
T74B4 001:383 JLINK_WriteReg(R2, 0x20000164)  returns 0x00 (0000ms, 0743ms total)
T74B4 001:383 JLINK_WriteReg(R3, 0x00000000)  returns 0x00 (0000ms, 0743ms total)
T74B4 001:383 JLINK_WriteReg(R4, 0x00000000)  returns 0x00 (0000ms, 0743ms total)
T74B4 001:383 JLINK_WriteReg(R5, 0x00000000)  returns 0x00 (0000ms, 0743ms total)
T74B4 001:383 JLINK_WriteReg(R6, 0x00000000)  returns 0x00 (0000ms, 0743ms total)
T74B4 001:383 JLINK_WriteReg(R7, 0x00000000)  returns 0x00 (0000ms, 0743ms total)
T74B4 001:383 JLINK_WriteReg(R8, 0x00000000)  returns 0x00 (0000ms, 0743ms total)
T74B4 001:383 JLINK_WriteReg(R9, 0x20000160)  returns 0x00 (0000ms, 0743ms total)
T74B4 001:383 JLINK_WriteReg(R10, 0x00000000)  returns 0x00 (0000ms, 0743ms total)
T74B4 001:383 JLINK_WriteReg(R11, 0x00000000)  returns 0x00 (0000ms, 0743ms total)
T74B4 001:383 JLINK_WriteReg(R12, 0x00000000)  returns 0x00 (0000ms, 0743ms total)
T74B4 001:383 JLINK_WriteReg(R13 (SP), 0x20000800)  returns 0x00 (0000ms, 0743ms total)
T74B4 001:383 JLINK_WriteReg(R14, 0x20000001)  returns 0x00 (0000ms, 0743ms total)
T74B4 001:383 JLINK_WriteReg(R15 (PC), 0x200000F4)  returns 0x00 (0000ms, 0743ms total)
T74B4 001:383 JLINK_WriteReg(XPSR, 0x01000000)  returns 0x00 (0000ms, 0743ms total)
T74B4 001:383 JLINK_WriteReg(MSP, 0x20000800)  returns 0x00 (0000ms, 0743ms total)
T74B4 001:383 JLINK_WriteReg(PSP, 0x20000800)  returns 0x00 (0000ms, 0743ms total)
T74B4 001:383 JLINK_WriteReg(CFBP, 0x00000000)  returns 0x00 (0000ms, 0743ms total)
T74B4 001:383 JLINK_SetBPEx(Addr = 0x20000000, Type = 0xFFFFFFF2)  returns 0x0000000C (0000ms, 0743ms total)
T74B4 001:383 JLINK_Go() (0002ms, 0745ms total)
T74B4 001:385 JLINK_IsHalted()  returns FALSE (0001ms, 0746ms total)
T74B4 001:391 JLINK_IsHalted()  returns FALSE (0000ms, 0745ms total)
T74B4 001:393 JLINK_IsHalted()  returns FALSE (0000ms, 0745ms total)
T74B4 001:395 JLINK_IsHalted()  returns FALSE (0001ms, 0746ms total)
T74B4 001:397 JLINK_IsHalted()  returns FALSE (0001ms, 0746ms total)
T74B4 001:399 JLINK_IsHalted()  returns FALSE (0000ms, 0745ms total)
T74B4 001:401 JLINK_IsHalted()  returns FALSE (0000ms, 0745ms total)
T74B4 001:403 JLINK_IsHalted()  returns FALSE (0000ms, 0745ms total)
T74B4 001:405 JLINK_IsHalted()  returns FALSE (0000ms, 0745ms total)
T74B4 001:407 JLINK_IsHalted()  returns FALSE (0000ms, 0745ms total)
T74B4 001:408 JLINK_IsHalted()  returns FALSE (0000ms, 0745ms total)
T74B4 001:410 JLINK_IsHalted()  returns FALSE (0000ms, 0745ms total)
T74B4 001:412 JLINK_IsHalted()  returns FALSE (0001ms, 0746ms total)
T74B4 001:414 JLINK_IsHalted()  returns FALSE (0000ms, 0745ms total)
T74B4 001:416 JLINK_IsHalted() -- CPU_ReadMem(2 bytes @ 0x20000000)  returns TRUE (0003ms, 0748ms total)
T74B4 001:419 JLINK_ReadReg(R15 (PC))  returns 0x20000000 (0000ms, 0745ms total)
T74B4 001:419 JLINK_ClrBPEx(BPHandle = 0x0000000C)  returns 0x00 (0000ms, 0745ms total)
T74B4 001:419 JLINK_ReadReg(R0)  returns 0x00000000 (0000ms, 0745ms total)
T74B4 001:420 JLINK_WriteMem(0x20000164, 0x0400 Bytes, ...) -- Data:  20 46 FF F7 34 FF BD E8 FC 81 70 B5 04 46 60 78 ... -- CPU_WriteMem(1024 bytes @ 0x20000164)  returns 0x400 (0012ms, 0757ms total)
T74B4 001:432 JLINK_WriteReg(R0, 0x08002000)  returns 0x00 (0000ms, 0757ms total)
T74B4 001:432 JLINK_WriteReg(R1, 0x00000400)  returns 0x00 (0000ms, 0757ms total)
T74B4 001:432 JLINK_WriteReg(R2, 0x20000164)  returns 0x00 (0000ms, 0757ms total)
T74B4 001:432 JLINK_WriteReg(R3, 0x00000000)  returns 0x00 (0000ms, 0757ms total)
T74B4 001:432 JLINK_WriteReg(R4, 0x00000000)  returns 0x00 (0000ms, 0757ms total)
T74B4 001:432 JLINK_WriteReg(R5, 0x00000000)  returns 0x00 (0000ms, 0757ms total)
T74B4 001:432 JLINK_WriteReg(R6, 0x00000000)  returns 0x00 (0000ms, 0757ms total)
T74B4 001:432 JLINK_WriteReg(R7, 0x00000000)  returns 0x00 (0000ms, 0757ms total)
T74B4 001:432 JLINK_WriteReg(R8, 0x00000000)  returns 0x00 (0000ms, 0757ms total)
T74B4 001:432 JLINK_WriteReg(R9, 0x20000160)  returns 0x00 (0000ms, 0757ms total)
T74B4 001:432 JLINK_WriteReg(R10, 0x00000000)  returns 0x00 (0000ms, 0757ms total)
T74B4 001:432 JLINK_WriteReg(R11, 0x00000000)  returns 0x00 (0000ms, 0757ms total)
T74B4 001:432 JLINK_WriteReg(R12, 0x00000000)  returns 0x00 (0000ms, 0757ms total)
T74B4 001:432 JLINK_WriteReg(R13 (SP), 0x20000800)  returns 0x00 (0000ms, 0757ms total)
T74B4 001:432 JLINK_WriteReg(R14, 0x20000001)  returns 0x00 (0000ms, 0757ms total)
T74B4 001:432 JLINK_WriteReg(R15 (PC), 0x200000F4)  returns 0x00 (0000ms, 0757ms total)
T74B4 001:432 JLINK_WriteReg(XPSR, 0x01000000)  returns 0x00 (0000ms, 0757ms total)
T74B4 001:432 JLINK_WriteReg(MSP, 0x20000800)  returns 0x00 (0000ms, 0757ms total)
T74B4 001:432 JLINK_WriteReg(PSP, 0x20000800)  returns 0x00 (0000ms, 0757ms total)
T74B4 001:432 JLINK_WriteReg(CFBP, 0x00000000)  returns 0x00 (0000ms, 0757ms total)
T74B4 001:432 JLINK_SetBPEx(Addr = 0x20000000, Type = 0xFFFFFFF2)  returns 0x0000000D (0000ms, 0757ms total)
T74B4 001:432 JLINK_Go() (0002ms, 0759ms total)
T74B4 001:434 JLINK_IsHalted()  returns FALSE (0000ms, 0759ms total)
T74B4 001:436 JLINK_IsHalted()  returns FALSE (0000ms, 0759ms total)
T74B4 001:438 JLINK_IsHalted()  returns FALSE (0000ms, 0759ms total)
T74B4 001:439 JLINK_IsHalted()  returns FALSE (0000ms, 0759ms total)
T74B4 001:441 JLINK_IsHalted()  returns FALSE (0000ms, 0759ms total)
T74B4 001:443 JLINK_IsHalted()  returns FALSE (0000ms, 0759ms total)
T74B4 001:444 JLINK_IsHalted()  returns FALSE (0000ms, 0759ms total)
T74B4 001:446 JLINK_IsHalted()  returns FALSE (0000ms, 0759ms total)
T74B4 001:448 JLINK_IsHalted()  returns FALSE (0000ms, 0759ms total)
T74B4 001:450 JLINK_IsHalted()  returns FALSE (0000ms, 0759ms total)
T74B4 001:451 JLINK_IsHalted()  returns FALSE (0000ms, 0759ms total)
T74B4 001:453 JLINK_IsHalted()  returns FALSE (0000ms, 0759ms total)
T74B4 001:455 JLINK_IsHalted()  returns FALSE (0000ms, 0759ms total)
T74B4 001:457 JLINK_IsHalted()  returns FALSE (0000ms, 0759ms total)
T74B4 001:458 JLINK_IsHalted()  returns FALSE (0001ms, 0760ms total)
T74B4 001:461 JLINK_IsHalted()  returns FALSE (0000ms, 0759ms total)
T74B4 001:463 JLINK_IsHalted()  returns FALSE (0000ms, 0759ms total)
T74B4 001:465 JLINK_IsHalted() -- CPU_ReadMem(2 bytes @ 0x20000000)  returns TRUE (0003ms, 0762ms total)
T74B4 001:468 JLINK_ReadReg(R15 (PC))  returns 0x20000000 (0000ms, 0759ms total)
T74B4 001:468 JLINK_ClrBPEx(BPHandle = 0x0000000D)  returns 0x00 (0000ms, 0759ms total)
T74B4 001:468 JLINK_ReadReg(R0)  returns 0x00000000 (0000ms, 0759ms total)
T74B4 001:469 JLINK_WriteMem(0x20000164, 0x0400 Bytes, ...) -- Data:  07 46 88 46 15 46 1E 46 38 46 00 F0 12 F9 41 46 ... -- CPU_WriteMem(1024 bytes @ 0x20000164)  returns 0x400 (0012ms, 0771ms total)
T74B4 001:481 JLINK_WriteReg(R0, 0x08002400)  returns 0x00 (0000ms, 0771ms total)
T74B4 001:481 JLINK_WriteReg(R1, 0x00000400)  returns 0x00 (0000ms, 0771ms total)
T74B4 001:481 JLINK_WriteReg(R2, 0x20000164)  returns 0x00 (0000ms, 0771ms total)
T74B4 001:481 JLINK_WriteReg(R3, 0x00000000)  returns 0x00 (0000ms, 0771ms total)
T74B4 001:481 JLINK_WriteReg(R4, 0x00000000)  returns 0x00 (0000ms, 0771ms total)
T74B4 001:481 JLINK_WriteReg(R5, 0x00000000)  returns 0x00 (0000ms, 0771ms total)
T74B4 001:481 JLINK_WriteReg(R6, 0x00000000)  returns 0x00 (0000ms, 0771ms total)
T74B4 001:481 JLINK_WriteReg(R7, 0x00000000)  returns 0x00 (0000ms, 0771ms total)
T74B4 001:481 JLINK_WriteReg(R8, 0x00000000)  returns 0x00 (0000ms, 0771ms total)
T74B4 001:481 JLINK_WriteReg(R9, 0x20000160)  returns 0x00 (0000ms, 0771ms total)
T74B4 001:481 JLINK_WriteReg(R10, 0x00000000)  returns 0x00 (0000ms, 0771ms total)
T74B4 001:481 JLINK_WriteReg(R11, 0x00000000)  returns 0x00 (0000ms, 0771ms total)
T74B4 001:481 JLINK_WriteReg(R12, 0x00000000)  returns 0x00 (0000ms, 0771ms total)
T74B4 001:481 JLINK_WriteReg(R13 (SP), 0x20000800)  returns 0x00 (0000ms, 0771ms total)
T74B4 001:481 JLINK_WriteReg(R14, 0x20000001)  returns 0x00 (0000ms, 0771ms total)
T74B4 001:481 JLINK_WriteReg(R15 (PC), 0x200000F4)  returns 0x00 (0000ms, 0771ms total)
T74B4 001:481 JLINK_WriteReg(XPSR, 0x01000000)  returns 0x00 (0000ms, 0771ms total)
T74B4 001:481 JLINK_WriteReg(MSP, 0x20000800)  returns 0x00 (0000ms, 0771ms total)
T74B4 001:481 JLINK_WriteReg(PSP, 0x20000800)  returns 0x00 (0001ms, 0772ms total)
T74B4 001:482 JLINK_WriteReg(CFBP, 0x00000000)  returns 0x00 (0000ms, 0772ms total)
T74B4 001:482 JLINK_SetBPEx(Addr = 0x20000000, Type = 0xFFFFFFF2)  returns 0x0000000E (0000ms, 0772ms total)
T74B4 001:482 JLINK_Go() (0001ms, 0773ms total)
T74B4 001:483 JLINK_IsHalted()  returns FALSE (0001ms, 0774ms total)
T74B4 001:489 JLINK_IsHalted()  returns FALSE (0001ms, 0774ms total)
T74B4 001:491 JLINK_IsHalted()  returns FALSE (0000ms, 0773ms total)
T74B4 001:493 JLINK_IsHalted()  returns FALSE (0000ms, 0773ms total)
T74B4 001:495 JLINK_IsHalted()  returns FALSE (0000ms, 0773ms total)
T74B4 001:496 JLINK_IsHalted()  returns FALSE (0000ms, 0773ms total)
T74B4 001:498 JLINK_IsHalted()  returns FALSE (0000ms, 0773ms total)
T74B4 001:500 JLINK_IsHalted()  returns FALSE (0000ms, 0773ms total)
T74B4 001:502 JLINK_IsHalted()  returns FALSE (0000ms, 0773ms total)
T74B4 001:504 JLINK_IsHalted()  returns FALSE (0000ms, 0773ms total)
T74B4 001:506 JLINK_IsHalted()  returns FALSE (0000ms, 0773ms total)
T74B4 001:507 JLINK_IsHalted()  returns FALSE (0000ms, 0773ms total)
T74B4 001:509 JLINK_IsHalted()  returns FALSE (0001ms, 0774ms total)
T74B4 001:511 JLINK_IsHalted()  returns FALSE (0000ms, 0773ms total)
T74B4 001:513 JLINK_IsHalted()  returns FALSE (0000ms, 0773ms total)
T74B4 001:515 JLINK_IsHalted() -- CPU_ReadMem(2 bytes @ 0x20000000)  returns TRUE (0003ms, 0776ms total)
T74B4 001:519 JLINK_ReadReg(R15 (PC))  returns 0x20000000 (0000ms, 0773ms total)
